
Note: No compatibility mode selected!


Circuit: Psi-NN Neural Network Test (ngspice)

Doing analysis at TEMP = 27.000000 and TNOM = 27.000000

Using SPARSE 1.3 as Direct Linear Solver

No. of Data Rows : 400
                      Psi-NN Neural Network Test (ngspice)
                      DC transfer characteristic  Tue Jan  6 13:50:56  2026
--------------------------------------------------------------------------------
Index   v-sweep         v(in0)          v(in1)          v(out0)         
--------------------------------------------------------------------------------
0	-9.98086e-01	-9.98086e-01	-9.82414e-01	-1.62704e-02	
1	-8.98086e-01	-8.98086e-01	-9.82414e-01	-1.45110e-02	
2	-7.98086e-01	-7.98086e-01	-9.82414e-01	-1.30139e-02	
3	-6.98086e-01	-6.98086e-01	-9.82414e-01	-1.17433e-02	
4	-5.98086e-01	-5.98086e-01	-9.82414e-01	-1.06366e-02	
5	-4.98086e-01	-4.98086e-01	-9.82414e-01	-9.61201e-03	
6	-3.98086e-01	-3.98086e-01	-9.82414e-01	-8.58269e-03	
7	-2.98086e-01	-2.98086e-01	-9.82414e-01	-7.47310e-03	
8	-1.98086e-01	-1.98086e-01	-9.82414e-01	-6.23590e-03	
9	-9.80858e-02	-9.80858e-02	-9.82414e-01	-4.86529e-03	
10	1.914224e-03	1.914224e-03	-9.82414e-01	-3.40482e-03	
11	1.019142e-01	1.019142e-01	-9.82414e-01	-1.94858e-03	
12	2.019142e-01	2.019142e-01	-9.82414e-01	-6.36220e-04	
13	3.019142e-01	3.019142e-01	-9.82414e-01	3.571474e-04	
14	4.019142e-01	4.019142e-01	-9.82414e-01	8.350050e-04	
15	5.019142e-01	5.019142e-01	-9.82414e-01	5.959472e-04	
16	6.019142e-01	6.019142e-01	-9.82414e-01	-5.48684e-04	
17	7.019142e-01	7.019142e-01	-9.82414e-01	-2.75758e-03	
18	8.019142e-01	8.019142e-01	-9.82414e-01	-6.14430e-03	
19	9.019142e-01	9.019142e-01	-9.82414e-01	-1.07656e-02	
20	-9.98086e-01	-9.98086e-01	-8.82414e-01	-1.37215e-03	
21	-8.98086e-01	-8.98086e-01	-8.82414e-01	1.043714e-03	
22	-7.98086e-01	-7.98086e-01	-8.82414e-01	3.068078e-03	
23	-6.98086e-01	-6.98086e-01	-8.82414e-01	4.702125e-03	
24	-5.98086e-01	-5.98086e-01	-8.82414e-01	5.980675e-03	
25	-4.98086e-01	-4.98086e-01	-8.82414e-01	6.968778e-03	
26	-3.98086e-01	-3.98086e-01	-8.82414e-01	7.750997e-03	
27	-2.98086e-01	-2.98086e-01	-8.82414e-01	8.414606e-03	
28	-1.98086e-01	-1.98086e-01	-8.82414e-01	9.029814e-03	
29	-9.80858e-02	-9.80858e-02	-8.82414e-01	9.631079e-03	
30	1.914224e-03	1.914224e-03	-8.82414e-01	1.020334e-02	
31	1.019142e-01	1.019142e-01	-8.82414e-01	1.067580e-02	
32	2.019142e-01	2.019142e-01	-8.82414e-01	1.092408e-02	
33	3.019142e-01	3.019142e-01	-8.82414e-01	1.078048e-02	
34	4.019142e-01	4.019142e-01	-8.82414e-01	1.005050e-02	
35	5.019142e-01	5.019142e-01	-8.82414e-01	8.533725e-03	
36	6.019142e-01	6.019142e-01	-8.82414e-01	6.046242e-03	
37	7.019142e-01	7.019142e-01	-8.82414e-01	2.441986e-03	
38	8.019142e-01	8.019142e-01	-8.82414e-01	-2.36973e-03	
39	9.019142e-01	9.019142e-01	-8.82414e-01	-8.41262e-03	
40	-9.98086e-01	-9.98086e-01	-7.82414e-01	1.305484e-02	
41	-8.98086e-01	-8.98086e-01	-7.82414e-01	1.620113e-02	
42	-7.98086e-01	-7.98086e-01	-7.82414e-01	1.885389e-02	
43	-6.98086e-01	-6.98086e-01	-7.82414e-01	2.097646e-02	
44	-5.98086e-01	-5.98086e-01	-7.82414e-01	2.256820e-02	
45	-4.98086e-01	-4.98086e-01	-7.82414e-01	2.366610e-02	
46	-3.98086e-01	-3.98086e-01	-7.82414e-01	2.433846e-02	
47	-2.98086e-01	-2.98086e-01	-7.82414e-01	2.467060e-02	
48	-1.98086e-01	-1.98086e-01	-7.82414e-01	2.474451e-02	
49	-9.80858e-02	-9.80858e-02	-7.82414e-01	2.461680e-02	
50	1.914224e-03	1.914224e-03	-7.82414e-01	2.429939e-02	
51	1.019142e-01	1.019142e-01	-7.82414e-01	2.374769e-02	
52	2.019142e-01	2.019142e-01	-7.82414e-01	2.285868e-02	
53	3.019142e-01	3.019142e-01	-7.82414e-01	2.147974e-02	
54	4.019142e-01	4.019142e-01	-7.82414e-01	1.942682e-02	

Index   v-sweep         v(in0)          v(in1)          v(out0)         
--------------------------------------------------------------------------------
55	5.019142e-01	5.019142e-01	-7.82414e-01	1.650916e-02	
56	6.019142e-01	6.019142e-01	-7.82414e-01	1.255641e-02	
57	7.019142e-01	7.019142e-01	-7.82414e-01	7.443946e-03	
58	8.019142e-01	8.019142e-01	-7.82414e-01	1.112417e-03	
59	9.019142e-01	9.019142e-01	-7.82414e-01	-6.42146e-03	
60	-9.98086e-01	-9.98086e-01	-6.82414e-01	2.667730e-02	
61	-8.98086e-01	-8.98086e-01	-6.82414e-01	3.058910e-02	
62	-7.98086e-01	-7.98086e-01	-6.82414e-01	3.393486e-02	
63	-6.98086e-01	-6.98086e-01	-6.82414e-01	3.664142e-02	
64	-5.98086e-01	-5.98086e-01	-6.82414e-01	3.866987e-02	
65	-4.98086e-01	-4.98086e-01	-6.82414e-01	4.002130e-02	
66	-3.98086e-01	-3.98086e-01	-6.82414e-01	4.073546e-02	
67	-2.98086e-01	-2.98086e-01	-6.82414e-01	4.088061e-02	
68	-1.98086e-01	-1.98086e-01	-6.82414e-01	4.053558e-02	
69	-9.80858e-02	-9.80858e-02	-6.82414e-01	3.976697e-02	
70	1.914224e-03	1.914224e-03	-6.82414e-01	3.860656e-02	
71	1.019142e-01	1.019142e-01	-6.82414e-01	3.703445e-02	
72	2.019142e-01	2.019142e-01	-6.82414e-01	3.497254e-02	
73	3.019142e-01	3.019142e-01	-6.82414e-01	3.229066e-02	
74	4.019142e-01	4.019142e-01	-6.82414e-01	2.882499e-02	
75	5.019142e-01	5.019142e-01	-6.82414e-01	2.440535e-02	
76	6.019142e-01	6.019142e-01	-6.82414e-01	1.888624e-02	
77	7.019142e-01	7.019142e-01	-6.82414e-01	1.217540e-02	
78	8.019142e-01	8.019142e-01	-6.82414e-01	4.254447e-03	
79	9.019142e-01	9.019142e-01	-6.82414e-01	-4.81212e-03	
80	-9.98086e-01	-9.98086e-01	-5.82414e-01	3.916608e-02	
81	-8.98086e-01	-8.98086e-01	-5.82414e-01	4.383575e-02	
82	-7.98086e-01	-7.98086e-01	-5.82414e-01	4.789454e-02	
83	-6.98086e-01	-6.98086e-01	-5.82414e-01	5.123795e-02	
84	-5.98086e-01	-5.98086e-01	-5.82414e-01	5.379088e-02	
85	-4.98086e-01	-4.98086e-01	-5.82414e-01	5.551606e-02	
86	-3.98086e-01	-3.98086e-01	-5.82414e-01	5.641666e-02	
87	-2.98086e-01	-2.98086e-01	-5.82414e-01	5.653093e-02	
88	-1.98086e-01	-1.98086e-01	-5.82414e-01	5.591847e-02	
89	-9.80858e-02	-9.80858e-02	-5.82414e-01	5.463989e-02	
90	1.914224e-03	1.914224e-03	-5.82414e-01	5.273401e-02	
91	1.019142e-01	1.019142e-01	-5.82414e-01	5.019837e-02	
92	2.019142e-01	2.019142e-01	-5.82414e-01	4.697902e-02	
93	3.019142e-01	3.019142e-01	-5.82414e-01	4.297342e-02	
94	4.019142e-01	4.019142e-01	-5.82414e-01	3.804757e-02	
95	5.019142e-01	5.019142e-01	-5.82414e-01	3.206422e-02	
96	6.019142e-01	6.019142e-01	-5.82414e-01	2.491592e-02	
97	7.019142e-01	7.019142e-01	-5.82414e-01	1.655523e-02	
98	8.019142e-01	8.019142e-01	-5.82414e-01	7.014861e-03	
99	9.019142e-01	9.019142e-01	-5.82414e-01	-3.58628e-03	
100	-9.98086e-01	-9.98086e-01	-4.82414e-01	5.021340e-02	
101	-8.98086e-01	-8.98086e-01	-4.82414e-01	5.559137e-02	
102	-7.98086e-01	-7.98086e-01	-4.82414e-01	6.033611e-02	
103	-6.98086e-01	-6.98086e-01	-4.82414e-01	6.431905e-02	
104	-5.98086e-01	-5.98086e-01	-4.82414e-01	6.743490e-02	
105	-4.98086e-01	-4.98086e-01	-4.82414e-01	6.961087e-02	
106	-3.98086e-01	-3.98086e-01	-4.82414e-01	7.081147e-02	
107	-2.98086e-01	-2.98086e-01	-4.82414e-01	7.103710e-02	
108	-1.98086e-01	-1.98086e-01	-4.82414e-01	7.031502e-02	
109	-9.80858e-02	-9.80858e-02	-4.82414e-01	6.868358e-02	
110	1.914224e-03	1.914224e-03	-4.82414e-01	6.617258e-02	
111	1.019142e-01	1.019142e-01	-4.82414e-01	6.278463e-02	
112	2.019142e-01	2.019142e-01	-4.82414e-01	5.848373e-02	

Index   v-sweep         v(in0)          v(in1)          v(out0)         
--------------------------------------------------------------------------------
113	3.019142e-01	3.019142e-01	-4.82414e-01	5.319595e-02	
114	4.019142e-01	4.019142e-01	-4.82414e-01	4.682447e-02	
115	5.019142e-01	5.019142e-01	-4.82414e-01	3.927663e-02	
116	6.019142e-01	6.019142e-01	-4.82414e-01	3.049641e-02	
117	7.019142e-01	7.019142e-01	-4.82414e-01	2.049357e-02	
118	8.019142e-01	8.019142e-01	-4.82414e-01	9.361269e-03	
119	9.019142e-01	9.019142e-01	-4.82414e-01	-2.72256e-03	
120	-9.98086e-01	-9.98086e-01	-3.82414e-01	5.954748e-02	
121	-8.98086e-01	-8.98086e-01	-3.82414e-01	6.554702e-02	
122	-7.98086e-01	-7.98086e-01	-3.82414e-01	7.090655e-02	
123	-6.98086e-01	-6.98086e-01	-3.82414e-01	7.548101e-02	
124	-5.98086e-01	-5.98086e-01	-3.82414e-01	7.914280e-02	
125	-4.98086e-01	-4.98086e-01	-3.82414e-01	8.179022e-02	
126	-3.98086e-01	-3.98086e-01	-3.82414e-01	8.335281e-02	
127	-2.98086e-01	-2.98086e-01	-3.82414e-01	8.379191e-02	
128	-1.98086e-01	-1.98086e-01	-3.82414e-01	8.309560e-02	
129	-9.80858e-02	-9.80858e-02	-3.82414e-01	8.126804e-02	
130	1.914224e-03	1.914224e-03	-3.82414e-01	7.831510e-02	
131	1.019142e-01	1.019142e-01	-3.82414e-01	7.423008e-02	
132	2.019142e-01	2.019142e-01	-3.82414e-01	6.898452e-02	
133	3.019142e-01	3.019142e-01	-3.82414e-01	6.252906e-02	
134	4.019142e-01	4.019142e-01	-3.82414e-01	5.480679e-02	
135	5.019142e-01	5.019142e-01	-3.82414e-01	4.577762e-02	
136	6.019142e-01	6.019142e-01	-3.82414e-01	3.544728e-02	
137	7.019142e-01	7.019142e-01	-3.82414e-01	2.389229e-02	
138	8.019142e-01	8.019142e-01	-3.82414e-01	1.127230e-02	
139	9.019142e-01	9.019142e-01	-3.82414e-01	-2.17450e-03	
140	-9.98086e-01	-9.98086e-01	-2.82414e-01	6.694293e-02	
141	-8.98086e-01	-8.98086e-01	-2.82414e-01	7.344734e-02	
142	-7.98086e-01	-7.98086e-01	-2.82414e-01	7.931362e-02	
143	-6.98086e-01	-6.98086e-01	-2.82414e-01	8.438670e-02	
144	-5.98086e-01	-5.98086e-01	-2.82414e-01	8.852437e-02	
145	-4.98086e-01	-4.98086e-01	-2.82414e-01	9.160428e-02	
146	-3.98086e-01	-3.98086e-01	-2.82414e-01	9.352833e-02	
147	-2.98086e-01	-2.98086e-01	-2.82414e-01	9.422375e-02	
148	-1.98086e-01	-1.98086e-01	-2.82414e-01	9.364027e-02	
149	-9.80858e-02	-9.80858e-02	-2.82414e-01	9.174367e-02	
150	1.914224e-03	1.914224e-03	-2.82414e-01	8.850718e-02	
151	1.019142e-01	1.019142e-01	-2.82414e-01	8.390345e-02	
152	2.019142e-01	2.019142e-01	-2.82414e-01	7.790058e-02	
153	3.019142e-01	3.019142e-01	-2.82414e-01	7.046595e-02	
154	4.019142e-01	4.019142e-01	-2.82414e-01	6.157944e-02	
155	5.019142e-01	5.019142e-01	-2.82414e-01	5.125460e-02	
156	6.019142e-01	6.019142e-01	-2.82414e-01	3.956214e-02	
157	7.019142e-01	7.019142e-01	-2.82414e-01	2.664791e-02	
158	8.019142e-01	8.019142e-01	-2.82414e-01	1.273784e-02	
159	9.019142e-01	9.019142e-01	-2.82414e-01	-1.87355e-03	
160	-9.98086e-01	-9.98086e-01	-1.82414e-01	7.222627e-02	
161	-8.98086e-01	-8.98086e-01	-1.82414e-01	7.909693e-02	
162	-7.98086e-01	-7.98086e-01	-1.82414e-01	8.533434e-02	
163	-6.98086e-01	-6.98086e-01	-1.82414e-01	9.077812e-02	
164	-5.98086e-01	-5.98086e-01	-1.82414e-01	9.527770e-02	
165	-4.98086e-01	-4.98086e-01	-1.82414e-01	9.869782e-02	
166	-3.98086e-01	-3.98086e-01	-1.82414e-01	1.009216e-01	
167	-2.98086e-01	-2.98086e-01	-1.82414e-01	1.018511e-01	
168	-1.98086e-01	-1.98086e-01	-1.82414e-01	1.014051e-01	
169	-9.80858e-02	-9.80858e-02	-1.82414e-01	9.951576e-02	
170	1.914224e-03	1.914224e-03	-1.82414e-01	9.612421e-02	

Index   v-sweep         v(in0)          v(in1)          v(out0)         
--------------------------------------------------------------------------------
171	1.019142e-01	1.019142e-01	-1.82414e-01	9.117886e-02	
172	2.019142e-01	2.019142e-01	-1.82414e-01	8.463758e-02	
173	3.019142e-01	3.019142e-01	-1.82414e-01	7.647612e-02	
174	4.019142e-01	4.019142e-01	-1.82414e-01	6.670275e-02	
175	5.019142e-01	5.019142e-01	-1.82414e-01	5.537689e-02	
176	6.019142e-01	6.019142e-01	-1.82414e-01	4.262671e-02	
177	7.019142e-01	7.019142e-01	-1.82414e-01	2.865918e-02	
178	8.019142e-01	8.019142e-01	-1.82414e-01	1.375711e-02	
179	9.019142e-01	9.019142e-01	-1.82414e-01	-1.73904e-03	
180	-9.98086e-01	-9.98086e-01	-8.24140e-02	7.527744e-02	
181	-8.98086e-01	-8.98086e-01	-8.24140e-02	8.236139e-02	
182	-7.98086e-01	-7.98086e-01	-8.24140e-02	8.881615e-02	
183	-6.98086e-01	-6.98086e-01	-8.24140e-02	9.447898e-02	
184	-5.98086e-01	-5.98086e-01	-8.24140e-02	9.919536e-02	
185	-4.98086e-01	-4.98086e-01	-8.24140e-02	1.028235e-01	
186	-3.98086e-01	-3.98086e-01	-8.24140e-02	1.052362e-01	
187	-2.98086e-01	-2.98086e-01	-8.24140e-02	1.063210e-01	
188	-1.98086e-01	-1.98086e-01	-8.24140e-02	1.059780e-01	
189	-9.80858e-02	-9.80858e-02	-8.24140e-02	1.041172e-01	
190	1.914224e-03	1.914224e-03	-8.24140e-02	1.006577e-01	
191	1.019142e-01	1.019142e-01	-8.24140e-02	9.552972e-02	
192	2.019142e-01	2.019142e-01	-8.24140e-02	8.868124e-02	
193	3.019142e-01	3.019142e-01	-8.24140e-02	8.009068e-02	
194	4.019142e-01	4.019142e-01	-8.24140e-02	6.978316e-02	
195	5.019142e-01	5.019142e-01	-8.24140e-02	5.784771e-02	
196	6.019142e-01	6.019142e-01	-8.24140e-02	4.445066e-02	
197	7.019142e-01	7.019142e-01	-8.24140e-02	2.983965e-02	
198	8.019142e-01	8.019142e-01	-8.24140e-02	1.433470e-02	
199	9.019142e-01	9.019142e-01	-8.24140e-02	-1.69465e-03	
200	-9.98086e-01	-9.98086e-01	1.758596e-02	7.602886e-02	
201	-8.98086e-01	-8.98086e-01	1.758596e-02	8.316552e-02	
202	-7.98086e-01	-7.98086e-01	1.758596e-02	8.967411e-02	
203	-6.98086e-01	-6.98086e-01	1.758596e-02	9.539140e-02	
204	-5.98086e-01	-5.98086e-01	1.758596e-02	1.001620e-01	
205	-4.98086e-01	-4.98086e-01	1.758596e-02	1.038426e-01	
206	-3.98086e-01	-3.98086e-01	1.758596e-02	1.063037e-01	
207	-2.98086e-01	-2.98086e-01	1.758596e-02	1.074290e-01	
208	-1.98086e-01	-1.98086e-01	1.758596e-02	1.071141e-01	
209	-9.80858e-02	-9.80858e-02	1.758596e-02	1.052623e-01	
210	1.914224e-03	1.914224e-03	1.758596e-02	1.017898e-01	
211	1.019142e-01	1.019142e-01	1.758596e-02	9.661870e-02	
212	2.019142e-01	2.019142e-01	1.758596e-02	8.969521e-02	
213	3.019142e-01	3.019142e-01	1.758596e-02	8.099803e-02	
214	4.019142e-01	4.019142e-01	1.758596e-02	7.055642e-02	
215	5.019142e-01	5.019142e-01	1.758596e-02	5.846711e-02	
216	6.019142e-01	6.019142e-01	1.758596e-02	4.490642e-02	
217	7.019142e-01	7.019142e-01	1.758596e-02	3.013270e-02	
218	8.019142e-01	8.019142e-01	1.758596e-02	1.447566e-02	
219	9.019142e-01	9.019142e-01	1.758596e-02	-1.68766e-03	
220	-9.98086e-01	-9.98086e-01	1.175860e-01	7.446410e-02	
221	-8.98086e-01	-8.98086e-01	1.175860e-01	8.149107e-02	
222	-7.98086e-01	-7.98086e-01	1.175860e-01	8.788770e-02	
223	-6.98086e-01	-6.98086e-01	1.175860e-01	9.349179e-02	
224	-5.98086e-01	-5.98086e-01	1.175860e-01	9.814984e-02	
225	-4.98086e-01	-4.98086e-01	1.175860e-01	1.017217e-01	
226	-3.98086e-01	-3.98086e-01	1.175860e-01	1.040829e-01	
227	-2.98086e-01	-2.98086e-01	1.175860e-01	1.051249e-01	
228	-1.98086e-01	-1.98086e-01	1.175860e-01	1.047526e-01	

Index   v-sweep         v(in0)          v(in1)          v(out0)         
--------------------------------------------------------------------------------
229	-9.80858e-02	-9.80858e-02	1.175860e-01	1.028824e-01	
230	1.914224e-03	1.914224e-03	1.175860e-01	9.943935e-02	
231	1.019142e-01	1.019142e-01	1.175860e-01	9.435885e-02	
232	2.019142e-01	2.019142e-01	1.175860e-01	8.759188e-02	
233	3.019142e-01	3.019142e-01	1.175860e-01	7.911633e-02	
234	4.019142e-01	4.019142e-01	1.175860e-01	6.895280e-02	
235	5.019142e-01	5.019142e-01	1.175860e-01	5.718221e-02	
236	6.019142e-01	6.019142e-01	1.175860e-01	4.396032e-02	
237	7.019142e-01	7.019142e-01	1.175860e-01	2.952351e-02	
238	8.019142e-01	8.019142e-01	1.175860e-01	1.418155e-02	
239	9.019142e-01	9.019142e-01	1.175860e-01	-1.70400e-03	
240	-9.98086e-01	-9.98086e-01	2.175860e-01	7.061746e-02	
241	-8.98086e-01	-8.98086e-01	2.175860e-01	7.737615e-02	
242	-7.98086e-01	-7.98086e-01	2.175860e-01	8.349982e-02	
243	-6.98086e-01	-6.98086e-01	2.175860e-01	8.882952e-02	
244	-5.98086e-01	-5.98086e-01	2.175860e-01	9.321705e-02	
245	-4.98086e-01	-4.98086e-01	2.175860e-01	9.653086e-02	
246	-3.98086e-01	-3.98086e-01	2.175860e-01	9.865969e-02	
247	-2.98086e-01	-2.98086e-01	2.175860e-01	9.951325e-02	
248	-1.98086e-01	-1.98086e-01	2.175860e-01	9.902009e-02	
249	-9.80858e-02	-9.80858e-02	2.175860e-01	9.712307e-02	
250	1.914224e-03	1.914224e-03	2.175860e-01	9.377397e-02	
251	1.019142e-01	1.019142e-01	2.175860e-01	8.892952e-02	
252	2.019142e-01	2.019142e-01	2.175860e-01	8.255153e-02	
253	3.019142e-01	3.019142e-01	2.175860e-01	7.461366e-02	
254	4.019142e-01	4.019142e-01	2.175860e-01	6.511539e-02	
255	5.019142e-01	5.019142e-01	2.175860e-01	5.410146e-02	
256	6.019142e-01	6.019142e-01	2.175860e-01	4.168144e-02	
257	7.019142e-01	7.019142e-01	2.175860e-01	2.804253e-02	
258	8.019142e-01	8.019142e-01	2.175860e-01	1.344926e-02	
259	9.019142e-01	9.019142e-01	2.175860e-01	-1.77246e-03	
260	-9.98086e-01	-9.98086e-01	3.175860e-01	6.457482e-02	
261	-8.98086e-01	-8.98086e-01	3.175860e-01	7.091650e-02	
262	-7.98086e-01	-7.98086e-01	3.175860e-01	7.661880e-02	
263	-6.98086e-01	-6.98086e-01	3.175860e-01	8.152953e-02	
264	-5.98086e-01	-5.98086e-01	3.175860e-01	8.551081e-02	
265	-4.98086e-01	-4.98086e-01	3.175860e-01	8.844661e-02	
266	-3.98086e-01	-3.98086e-01	3.175860e-01	9.024759e-02	
267	-2.98086e-01	-2.98086e-01	3.175860e-01	9.085210e-02	
268	-1.98086e-01	-1.98086e-01	3.175860e-01	9.022280e-02	
269	-9.80858e-02	-9.80858e-02	3.175860e-01	8.833889e-02	
270	1.914224e-03	1.914224e-03	3.175860e-01	8.518553e-02	
271	1.019142e-01	1.019142e-01	3.175860e-01	8.074350e-02	
272	2.019142e-01	2.019142e-01	3.175860e-01	7.498321e-02	
273	3.019142e-01	3.019142e-01	3.175860e-01	6.786715e-02	
274	4.019142e-01	4.019142e-01	3.175860e-01	5.936298e-02	
275	5.019142e-01	5.019142e-01	3.175860e-01	4.946581e-02	
276	6.019142e-01	6.019142e-01	3.175860e-01	3.822373e-02	
277	7.019142e-01	7.019142e-01	3.175860e-01	2.575853e-02	
278	8.019142e-01	8.019142e-01	3.175860e-01	1.227338e-02	
279	9.019142e-01	9.019142e-01	3.175860e-01	-1.95618e-03	
280	-9.98086e-01	-9.98086e-01	4.175860e-01	5.647500e-02	
281	-8.98086e-01	-8.98086e-01	4.175860e-01	6.226786e-02	
282	-7.98086e-01	-7.98086e-01	4.175860e-01	6.742177e-02	
283	-6.98086e-01	-6.98086e-01	4.175860e-01	7.179665e-02	
284	-5.98086e-01	-5.98086e-01	4.175860e-01	7.527182e-02	
285	-4.98086e-01	-4.98086e-01	4.175860e-01	7.775484e-02	
286	-3.98086e-01	-3.98086e-01	4.175860e-01	7.918687e-02	

Index   v-sweep         v(in0)          v(in1)          v(out0)         
--------------------------------------------------------------------------------
287	-2.98086e-01	-2.98086e-01	4.175860e-01	7.954269e-02	
288	-1.98086e-01	-1.98086e-01	4.175860e-01	7.882445e-02	
289	-9.80858e-02	-9.80858e-02	4.175860e-01	7.704928e-02	
290	1.914224e-03	1.914224e-03	4.175860e-01	7.423287e-02	
291	1.019142e-01	1.019142e-01	4.175860e-01	7.037335e-02	
292	2.019142e-01	2.019142e-01	4.175860e-01	6.544093e-02	
293	3.019142e-01	3.019142e-01	4.175860e-01	5.937837e-02	
294	4.019142e-01	4.019142e-01	4.175860e-01	5.211477e-02	
295	5.019142e-01	5.019142e-01	4.175860e-01	4.359100e-02	
296	6.019142e-01	6.019142e-01	4.175860e-01	3.379026e-02	
297	7.019142e-01	7.019142e-01	4.175860e-01	2.276485e-02	
298	8.019142e-01	8.019142e-01	4.175860e-01	1.065065e-02	
299	9.019142e-01	9.019142e-01	4.175860e-01	-2.33518e-03	
300	-9.98086e-01	-9.98086e-01	5.175860e-01	4.651010e-02	
301	-8.98086e-01	-8.98086e-01	5.175860e-01	5.164706e-02	
302	-7.98086e-01	-7.98086e-01	5.175860e-01	5.615651e-02	
303	-6.98086e-01	-6.98086e-01	5.175860e-01	5.991746e-02	
304	-5.98086e-01	-5.98086e-01	5.175860e-01	6.283437e-02	
305	-4.98086e-01	-4.98086e-01	5.175860e-01	6.484636e-02	
306	-3.98086e-01	-3.98086e-01	5.175860e-01	6.593139e-02	
307	-2.98086e-01	-2.98086e-01	5.175860e-01	6.610363e-02	
308	-1.98086e-01	-1.98086e-01	5.175860e-01	6.540290e-02	
309	-9.80858e-02	-9.80858e-02	5.175860e-01	6.387705e-02	
310	1.914224e-03	1.914224e-03	5.175860e-01	6.156090e-02	
311	1.019142e-01	1.019142e-01	5.175860e-01	5.845694e-02	
312	2.019142e-01	2.019142e-01	5.175860e-01	5.452385e-02	
313	3.019142e-01	3.019142e-01	5.175860e-01	4.967787e-02	
314	4.019142e-01	4.019142e-01	5.175860e-01	4.380849e-02	
315	5.019142e-01	5.019142e-01	5.175860e-01	3.680622e-02	
316	6.019142e-01	6.019142e-01	5.175860e-01	2.859551e-02	
317	7.019142e-01	7.019142e-01	5.175860e-01	1.916470e-02	
318	8.019142e-01	8.019142e-01	5.175860e-01	8.584775e-03	
319	9.019142e-01	9.019142e-01	5.175860e-01	-2.98745e-03	
320	-9.98086e-01	-9.98086e-01	6.175860e-01	3.492269e-02	
321	-8.98086e-01	-8.98086e-01	6.175860e-01	3.932937e-02	
