
Note: No compatibility mode selected!


Circuit: Psi-NN Neural Network Test (ngspice)

Doing analysis at TEMP = 27.000000 and TNOM = 27.000000

Using SPARSE 1.3 as Direct Linear Solver

No. of Data Rows : 400
                      Psi-NN Neural Network Test (ngspice)
                      DC transfer characteristic  Tue Jan  6 13:50:46  2026
--------------------------------------------------------------------------------
Index   v-sweep         v(in0)          v(in1)          v(out0)         
--------------------------------------------------------------------------------
0	-9.92197e-01	-9.92197e-01	-9.96017e-01	2.982785e-01	
1	-8.92197e-01	-8.92197e-01	-9.96017e-01	3.040065e-01	
2	-7.92197e-01	-7.92197e-01	-9.96017e-01	3.111371e-01	
3	-6.92197e-01	-6.92197e-01	-9.96017e-01	3.196031e-01	
4	-5.92197e-01	-5.92197e-01	-9.96017e-01	3.292922e-01	
5	-4.92197e-01	-4.92197e-01	-9.96017e-01	3.400456e-01	
6	-3.92197e-01	-3.92197e-01	-9.96017e-01	3.516613e-01	
7	-2.92197e-01	-2.92197e-01	-9.96017e-01	3.639020e-01	
8	-1.92197e-01	-1.92197e-01	-9.96017e-01	3.765084e-01	
9	-9.21974e-02	-9.21974e-02	-9.96017e-01	3.892148e-01	
10	7.802628e-03	7.802628e-03	-9.96017e-01	4.017661e-01	
11	1.078026e-01	1.078026e-01	-9.96017e-01	4.139319e-01	
12	2.078026e-01	2.078026e-01	-9.96017e-01	4.255176e-01	
13	3.078026e-01	3.078026e-01	-9.96017e-01	4.363706e-01	
14	4.078026e-01	4.078026e-01	-9.96017e-01	4.463819e-01	
15	5.078026e-01	5.078026e-01	-9.96017e-01	4.554833e-01	
16	6.078026e-01	6.078026e-01	-9.96017e-01	4.636431e-01	
17	7.078026e-01	7.078026e-01	-9.96017e-01	4.708600e-01	
18	8.078026e-01	8.078026e-01	-9.96017e-01	4.771561e-01	
19	9.078026e-01	9.078026e-01	-9.96017e-01	4.825701e-01	
20	-9.92197e-01	-9.92197e-01	-8.96017e-01	2.777643e-01	
21	-8.92197e-01	-8.92197e-01	-8.96017e-01	2.832583e-01	
22	-7.92197e-01	-7.92197e-01	-8.96017e-01	2.902174e-01	
23	-6.92197e-01	-6.92197e-01	-8.96017e-01	2.985670e-01	
24	-5.92197e-01	-5.92197e-01	-8.96017e-01	3.081839e-01	
25	-4.92197e-01	-4.92197e-01	-8.96017e-01	3.188961e-01	
26	-3.92197e-01	-3.92197e-01	-8.96017e-01	3.304855e-01	
27	-2.92197e-01	-2.92197e-01	-8.96017e-01	3.426965e-01	
28	-1.92197e-01	-1.92197e-01	-8.96017e-01	3.552498e-01	
29	-9.21974e-02	-9.21974e-02	-8.96017e-01	3.678595e-01	
30	7.802628e-03	7.802628e-03	-8.96017e-01	3.802517e-01	
31	1.078026e-01	1.078026e-01	-8.96017e-01	3.921814e-01	
32	2.078026e-01	2.078026e-01	-8.96017e-01	4.034455e-01	
33	3.078026e-01	3.078026e-01	-8.96017e-01	4.138900e-01	
34	4.078026e-01	4.078026e-01	-8.96017e-01	4.234119e-01	
35	5.078026e-01	5.078026e-01	-8.96017e-01	4.319565e-01	
36	6.078026e-01	6.078026e-01	-8.96017e-01	4.395108e-01	
37	7.078026e-01	7.078026e-01	-8.96017e-01	4.460953e-01	
38	8.078026e-01	8.078026e-01	-8.96017e-01	4.517546e-01	
39	9.078026e-01	9.078026e-01	-8.96017e-01	4.565486e-01	
40	-9.92197e-01	-9.92197e-01	-7.96017e-01	2.563576e-01	
41	-8.92197e-01	-8.92197e-01	-7.96017e-01	2.615563e-01	
42	-7.92197e-01	-7.92197e-01	-7.96017e-01	2.682507e-01	
43	-6.92197e-01	-6.92197e-01	-7.96017e-01	2.763562e-01	
44	-5.92197e-01	-5.92197e-01	-7.96017e-01	2.857387e-01	
45	-4.92197e-01	-4.92197e-01	-7.96017e-01	2.962147e-01	
46	-3.92197e-01	-3.92197e-01	-7.96017e-01	3.075559e-01	
47	-2.92197e-01	-2.92197e-01	-7.96017e-01	3.194979e-01	
48	-1.92197e-01	-1.92197e-01	-7.96017e-01	3.317539e-01	
49	-9.21974e-02	-9.21974e-02	-7.96017e-01	3.440313e-01	
50	7.802628e-03	7.802628e-03	-7.96017e-01	3.560501e-01	
51	1.078026e-01	1.078026e-01	-7.96017e-01	3.675599e-01	
52	2.078026e-01	2.078026e-01	-7.96017e-01	3.783538e-01	
53	3.078026e-01	3.078026e-01	-7.96017e-01	3.882769e-01	
54	4.078026e-01	4.078026e-01	-7.96017e-01	3.972299e-01	

Index   v-sweep         v(in0)          v(in1)          v(out0)         
--------------------------------------------------------------------------------
55	5.078026e-01	5.078026e-01	-7.96017e-01	4.051665e-01	
56	6.078026e-01	6.078026e-01	-7.96017e-01	4.120873e-01	
57	7.078026e-01	7.078026e-01	-7.96017e-01	4.180299e-01	
58	8.078026e-01	8.078026e-01	-7.96017e-01	4.230577e-01	
59	9.078026e-01	9.078026e-01	-7.96017e-01	4.272482e-01	
60	-9.92197e-01	-9.92197e-01	-6.96017e-01	2.342401e-01	
61	-8.92197e-01	-8.92197e-01	-6.96017e-01	2.390730e-01	
62	-7.92197e-01	-7.92197e-01	-6.96017e-01	2.453906e-01	
63	-6.92197e-01	-6.92197e-01	-6.96017e-01	2.530984e-01	
64	-5.92197e-01	-5.92197e-01	-6.96017e-01	2.620525e-01	
65	-4.92197e-01	-4.92197e-01	-6.96017e-01	2.720626e-01	
66	-3.92197e-01	-3.92197e-01	-6.96017e-01	2.828979e-01	
67	-2.92197e-01	-2.92197e-01	-6.96017e-01	2.942964e-01	
68	-1.92197e-01	-1.92197e-01	-6.96017e-01	3.059775e-01	
69	-9.21974e-02	-9.21974e-02	-6.96017e-01	3.176566e-01	
70	7.802628e-03	7.802628e-03	-6.96017e-01	3.290611e-01	
71	1.078026e-01	1.078026e-01	-6.96017e-01	3.399453e-01	
72	2.078026e-01	2.078026e-01	-6.96017e-01	3.501041e-01	
73	3.078026e-01	3.078026e-01	-6.96017e-01	3.593825e-01	
74	4.078026e-01	4.078026e-01	-6.96017e-01	3.676817e-01	
75	5.078026e-01	5.078026e-01	-6.96017e-01	3.749584e-01	
76	6.078026e-01	6.078026e-01	-6.96017e-01	3.812203e-01	
77	7.078026e-01	7.078026e-01	-6.96017e-01	3.865163e-01	
78	8.078026e-01	8.078026e-01	-6.96017e-01	3.909230e-01	
79	9.078026e-01	9.078026e-01	-6.96017e-01	3.945309e-01	
80	-9.92197e-01	-9.92197e-01	-5.96017e-01	2.115949e-01	
81	-8.92197e-01	-8.92197e-01	-5.96017e-01	2.159821e-01	
82	-7.92197e-01	-7.92197e-01	-5.96017e-01	2.217929e-01	
83	-6.92197e-01	-6.92197e-01	-5.96017e-01	2.289254e-01	
84	-5.92197e-01	-5.92197e-01	-5.96017e-01	2.372303e-01	
85	-4.92197e-01	-4.92197e-01	-5.96017e-01	2.465172e-01	
86	-3.92197e-01	-3.92197e-01	-5.96017e-01	2.565622e-01	
87	-2.92197e-01	-2.92197e-01	-5.96017e-01	2.671176e-01	
88	-1.92197e-01	-1.92197e-01	-5.96017e-01	2.779225e-01	
89	-9.21974e-02	-9.21974e-02	-5.96017e-01	2.887143e-01	
90	7.802628e-03	7.802628e-03	-5.96017e-01	2.992404e-01	
91	1.078026e-01	1.078026e-01	-5.96017e-01	3.092702e-01	
92	2.078026e-01	2.078026e-01	-5.96017e-01	3.186066e-01	
93	3.078026e-01	3.078026e-01	-5.96017e-01	3.270972e-01	
94	4.078026e-01	4.078026e-01	-5.96017e-01	3.346415e-01	
95	5.078026e-01	5.078026e-01	-5.96017e-01	3.411950e-01	
96	6.078026e-01	6.078026e-01	-5.96017e-01	3.467661e-01	
97	7.078026e-01	7.078026e-01	-5.96017e-01	3.514080e-01	
98	8.078026e-01	8.078026e-01	-5.96017e-01	3.552043e-01	
99	9.078026e-01	9.078026e-01	-5.96017e-01	3.582522e-01	
100	-9.92197e-01	-9.92197e-01	-4.96017e-01	1.885907e-01	
101	-8.92197e-01	-8.92197e-01	-4.96017e-01	1.924439e-01	
102	-7.92197e-01	-7.92197e-01	-4.96017e-01	1.976039e-01	
103	-6.92197e-01	-6.92197e-01	-4.96017e-01	2.039660e-01	
104	-5.92197e-01	-5.92197e-01	-4.96017e-01	2.113832e-01	
105	-4.92197e-01	-4.92197e-01	-4.96017e-01	2.196738e-01	
106	-3.92197e-01	-3.92197e-01	-4.96017e-01	2.286313e-01	
107	-2.92197e-01	-2.92197e-01	-4.96017e-01	2.380334e-01	
108	-1.92197e-01	-1.92197e-01	-4.96017e-01	2.476505e-01	
109	-9.21974e-02	-9.21974e-02	-4.96017e-01	2.572534e-01	
110	7.802628e-03	7.802628e-03	-4.96017e-01	2.666206e-01	
111	1.078026e-01	1.078026e-01	-4.96017e-01	2.755459e-01	
112	2.078026e-01	2.078026e-01	-4.96017e-01	2.838482e-01	

Index   v-sweep         v(in0)          v(in1)          v(out0)         
--------------------------------------------------------------------------------
113	3.078026e-01	3.078026e-01	-4.96017e-01	2.913814e-01	
114	4.078026e-01	4.078026e-01	-4.96017e-01	2.980450e-01	
115	5.078026e-01	5.078026e-01	-4.96017e-01	3.037909e-01	
116	6.078026e-01	6.078026e-01	-4.96017e-01	3.086238e-01	
117	7.078026e-01	7.078026e-01	-4.96017e-01	3.125945e-01	
118	8.078026e-01	8.078026e-01	-4.96017e-01	3.157860e-01	
119	9.078026e-01	9.078026e-01	-4.96017e-01	3.182957e-01	
120	-9.92197e-01	-9.92197e-01	-3.96017e-01	1.653679e-01	
121	-8.92197e-01	-8.92197e-01	-3.96017e-01	1.685944e-01	
122	-7.92197e-01	-7.92197e-01	-3.96017e-01	1.729529e-01	
123	-6.92197e-01	-6.92197e-01	-3.96017e-01	1.783436e-01	
124	-5.92197e-01	-5.92197e-01	-3.96017e-01	1.846310e-01	
125	-4.92197e-01	-4.92197e-01	-3.96017e-01	1.916528e-01	
126	-3.92197e-01	-3.92197e-01	-3.96017e-01	1.992301e-01	
127	-2.92197e-01	-2.92197e-01	-3.96017e-01	2.071754e-01	
128	-1.92197e-01	-1.92197e-01	-3.96017e-01	2.152993e-01	
129	-9.21974e-02	-9.21974e-02	-3.96017e-01	2.234142e-01	
130	7.802628e-03	7.802628e-03	-3.96017e-01	2.313374e-01	
131	1.078026e-01	1.078026e-01	-3.96017e-01	2.388957e-01	
132	2.078026e-01	2.078026e-01	-3.96017e-01	2.459313e-01	
133	3.078026e-01	3.078026e-01	-3.96017e-01	2.523120e-01	
134	4.078026e-01	4.078026e-01	-3.96017e-01	2.579418e-01	
135	5.078026e-01	5.078026e-01	-3.96017e-01	2.627706e-01	
136	6.078026e-01	6.078026e-01	-3.96017e-01	2.667970e-01	
137	7.078026e-01	7.078026e-01	-3.96017e-01	2.700644e-01	
138	8.078026e-01	8.078026e-01	-3.96017e-01	2.726478e-01	
139	9.078026e-01	9.078026e-01	-3.96017e-01	2.746370e-01	
140	-9.92197e-01	-9.92197e-01	-2.96017e-01	1.420310e-01	
141	-8.92197e-01	-8.92197e-01	-2.96017e-01	1.445399e-01	
142	-7.92197e-01	-7.92197e-01	-2.96017e-01	1.479510e-01	
143	-6.92197e-01	-6.92197e-01	-2.96017e-01	1.521786e-01	
144	-5.92197e-01	-5.92197e-01	-2.96017e-01	1.571089e-01	
145	-4.92197e-01	-4.92197e-01	-2.96017e-01	1.626096e-01	
146	-3.92197e-01	-3.92197e-01	-2.96017e-01	1.685385e-01	
147	-2.92197e-01	-2.92197e-01	-2.96017e-01	1.747505e-01	
148	-1.92197e-01	-1.92197e-01	-2.96017e-01	1.811014e-01	
149	-9.21974e-02	-9.21974e-02	-2.96017e-01	1.874499e-01	
150	7.802628e-03	7.802628e-03	-2.96017e-01	1.936573e-01	
151	1.078026e-01	1.078026e-01	-2.96017e-01	1.995892e-01	
152	2.078026e-01	2.078026e-01	-2.96017e-01	2.051196e-01	
153	3.078026e-01	3.078026e-01	-2.96017e-01	2.101385e-01	
154	4.078026e-01	4.078026e-01	-2.96017e-01	2.145622e-01	
155	5.078026e-01	5.078026e-01	-2.96017e-01	2.183435e-01	
156	6.078026e-01	6.078026e-01	-2.96017e-01	2.214762e-01	
157	7.078026e-01	7.078026e-01	-2.96017e-01	2.239928e-01	
158	8.078026e-01	8.078026e-01	-2.96017e-01	2.259545e-01	
159	9.078026e-01	9.078026e-01	-2.96017e-01	2.274354e-01	
160	-9.92197e-01	-9.92197e-01	-1.96017e-01	1.186469e-01	
161	-8.92197e-01	-8.92197e-01	-1.96017e-01	1.203582e-01	
162	-7.92197e-01	-7.92197e-01	-1.96017e-01	1.226949e-01	
163	-6.92197e-01	-6.92197e-01	-1.96017e-01	1.255943e-01	
164	-5.92197e-01	-5.92197e-01	-1.96017e-01	1.289748e-01	
165	-4.92197e-01	-4.92197e-01	-1.96017e-01	1.327429e-01	
166	-3.92197e-01	-3.92197e-01	-1.96017e-01	1.368006e-01	
167	-2.92197e-01	-2.92197e-01	-1.96017e-01	1.410496e-01	
168	-1.92197e-01	-1.92197e-01	-1.96017e-01	1.453941e-01	
169	-9.21974e-02	-9.21974e-02	-1.96017e-01	1.497403e-01	
170	7.802628e-03	7.802628e-03	-1.96017e-01	1.539960e-01	

Index   v-sweep         v(in0)          v(in1)          v(out0)         
--------------------------------------------------------------------------------
171	1.078026e-01	1.078026e-01	-1.96017e-01	1.580701e-01	
172	2.078026e-01	2.078026e-01	-1.96017e-01	1.618751e-01	
173	3.078026e-01	3.078026e-01	-1.96017e-01	1.653320e-01	
174	4.078026e-01	4.078026e-01	-1.96017e-01	1.683788e-01	
175	5.078026e-01	5.078026e-01	-1.96017e-01	1.709780e-01	
176	6.078026e-01	6.078026e-01	-1.96017e-01	1.731221e-01	
177	7.078026e-01	7.078026e-01	-1.96017e-01	1.748320e-01	
178	8.078026e-01	8.078026e-01	-1.96017e-01	1.761502e-01	
179	9.078026e-01	9.078026e-01	-1.96017e-01	1.771295e-01	
180	-9.92197e-01	-9.92197e-01	-9.60172e-02	9.525046e-02	
181	-8.92197e-01	-8.92197e-01	-9.60172e-02	9.610405e-02	
182	-7.92197e-01	-7.92197e-01	-9.60172e-02	9.727257e-02	
183	-6.92197e-01	-6.92197e-01	-9.60172e-02	9.872334e-02	
184	-5.92197e-01	-5.92197e-01	-9.60172e-02	1.004143e-01	
185	-4.92197e-01	-4.92197e-01	-9.60172e-02	1.022980e-01	
186	-3.92197e-01	-3.92197e-01	-9.60172e-02	1.043253e-01	
187	-2.92197e-01	-2.92197e-01	-9.60172e-02	1.064476e-01	
188	-1.92197e-01	-1.92197e-01	-9.60172e-02	1.086177e-01	
189	-9.21974e-02	-9.21974e-02	-9.60172e-02	1.107900e-01	
190	7.802628e-03	7.802628e-03	-9.60172e-02	1.129192e-01	
191	1.078026e-01	1.078026e-01	-9.60172e-02	1.149603e-01	
192	2.078026e-01	2.078026e-01	-9.60172e-02	1.168691e-01	
193	3.078026e-01	3.078026e-01	-9.60172e-02	1.186049e-01	
194	4.078026e-01	4.078026e-01	-9.60172e-02	1.201351e-01	
195	5.078026e-01	5.078026e-01	-9.60172e-02	1.214393e-01	
196	6.078026e-01	6.078026e-01	-9.60172e-02	1.225126e-01	
197	7.078026e-01	7.078026e-01	-9.60172e-02	1.233648e-01	
198	8.078026e-01	8.078026e-01	-9.60172e-02	1.240173e-01	
199	9.078026e-01	9.078026e-01	-9.60172e-02	1.244970e-01	
200	-9.92197e-01	-9.92197e-01	3.982828e-03	7.185348e-02	
201	-8.92197e-01	-8.92197e-01	3.982828e-03	7.181787e-02	
202	-7.92197e-01	-7.92197e-01	3.982828e-03	7.176908e-02	
203	-6.92197e-01	-6.92197e-01	3.982828e-03	7.170849e-02	
204	-5.92197e-01	-5.92197e-01	3.982828e-03	7.163788e-02	
205	-4.92197e-01	-4.92197e-01	3.982828e-03	7.155924e-02	
206	-3.92197e-01	-3.92197e-01	3.982828e-03	7.147461e-02	
207	-2.92197e-01	-2.92197e-01	3.982828e-03	7.138604e-02	
208	-1.92197e-01	-1.92197e-01	3.982828e-03	7.129546e-02	
209	-9.21974e-02	-9.21974e-02	3.982828e-03	7.120477e-02	
210	7.802628e-03	7.802628e-03	3.982828e-03	7.111585e-02	
211	1.078026e-01	1.078026e-01	3.982828e-03	7.103057e-02	
212	2.078026e-01	2.078026e-01	3.982828e-03	7.095079e-02	
213	3.078026e-01	3.078026e-01	3.982828e-03	7.087821e-02	
214	4.078026e-01	4.078026e-01	3.982828e-03	7.081421e-02	
215	5.078026e-01	5.078026e-01	3.982828e-03	7.075968e-02	
216	6.078026e-01	6.078026e-01	3.982828e-03	7.071484e-02	
217	7.078026e-01	7.078026e-01	3.982828e-03	7.067928e-02	
218	8.078026e-01	8.078026e-01	3.982828e-03	7.065212e-02	
219	9.078026e-01	9.078026e-01	3.982828e-03	7.063222e-02	
220	-9.92197e-01	-9.92197e-01	1.039828e-01	4.845646e-02	
221	-8.92197e-01	-8.92197e-01	1.039828e-01	4.753297e-02	
222	-7.92197e-01	-7.92197e-01	1.039828e-01	4.626895e-02	
223	-6.92197e-01	-6.92197e-01	1.039828e-01	4.469965e-02	
224	-5.92197e-01	-5.92197e-01	1.039828e-01	4.287051e-02	
225	-4.92197e-01	-4.92197e-01	1.039828e-01	4.083277e-02	
226	-3.92197e-01	-3.92197e-01	1.039828e-01	3.863966e-02	
227	-2.92197e-01	-2.92197e-01	1.039828e-01	3.634380e-02	
228	-1.92197e-01	-1.92197e-01	1.039828e-01	3.399617e-02	

Index   v-sweep         v(in0)          v(in1)          v(out0)         
--------------------------------------------------------------------------------
229	-9.21974e-02	-9.21974e-02	1.039828e-01	3.164627e-02	
230	7.802628e-03	7.802628e-03	1.039828e-01	2.934307e-02	
231	1.078026e-01	1.078026e-01	1.039828e-01	2.713539e-02	
232	2.078026e-01	2.078026e-01	1.039828e-01	2.507104e-02	
233	3.078026e-01	3.078026e-01	1.039828e-01	2.319383e-02	
234	4.078026e-01	4.078026e-01	1.039828e-01	2.153900e-02	
235	5.078026e-01	5.078026e-01	1.039828e-01	2.012843e-02	
236	6.078026e-01	6.078026e-01	1.039828e-01	1.896752e-02	
237	7.078026e-01	7.078026e-01	1.039828e-01	1.804551e-02	
238	8.078026e-01	8.078026e-01	1.039828e-01	1.733933e-02	
239	9.078026e-01	9.078026e-01	1.039828e-01	1.681990e-02	
240	-9.92197e-01	-9.92197e-01	2.039828e-01	2.506030e-02	
241	-8.92197e-01	-8.92197e-01	2.039828e-01	2.328301e-02	
242	-7.92197e-01	-7.92197e-01	2.039828e-01	2.085675e-02	
243	-6.92197e-01	-6.92197e-01	2.039828e-01	1.784639e-02	
244	-5.92197e-01	-5.92197e-01	2.039828e-01	1.433657e-02	
245	-4.92197e-01	-4.92197e-01	2.039828e-01	1.042399e-02	
246	-3.92197e-01	-3.92197e-01	2.039828e-01	6.210464e-03	
247	-2.92197e-01	-2.92197e-01	2.039828e-01	1.798065e-03	
248	-1.92197e-01	-1.92197e-01	2.039828e-01	-2.71335e-03	
249	-9.21974e-02	-9.21974e-02	2.039828e-01	-7.22629e-03	
250	7.802628e-03	7.802628e-03	2.039828e-01	-1.16448e-02	
251	1.078026e-01	1.078026e-01	2.039828e-01	-1.58743e-02	
252	2.078026e-01	2.078026e-01	2.039828e-01	-1.98239e-02	
253	3.078026e-01	3.078026e-01	2.039828e-01	-2.34118e-02	
254	4.078026e-01	4.078026e-01	2.039828e-01	-2.65740e-02	
255	5.078026e-01	5.078026e-01	2.039828e-01	-2.92720e-02	
256	6.078026e-01	6.078026e-01	2.039828e-01	-3.14981e-02	
257	7.078026e-01	7.078026e-01	2.039828e-01	-3.32743e-02	
258	8.078026e-01	8.078026e-01	2.039828e-01	-3.46446e-02	
259	9.078026e-01	9.078026e-01	2.039828e-01	-3.56638e-02	
260	-9.92197e-01	-9.92197e-01	3.039828e-01	1.678327e-03	
261	-8.92197e-01	-8.92197e-01	3.039828e-01	-8.90891e-04	
262	-7.92197e-01	-7.92197e-01	3.039828e-01	-4.38242e-03	
263	-6.92197e-01	-6.92197e-01	3.039828e-01	-8.70915e-03	
264	-5.92197e-01	-5.92197e-01	3.039828e-01	-1.37552e-02	
265	-4.92197e-01	-4.92197e-01	3.039828e-01	-1.93855e-02	
266	-3.92197e-01	-3.92197e-01	3.039828e-01	-2.54546e-02	
267	-2.92197e-01	-2.92197e-01	3.039828e-01	-3.18138e-02	
268	-1.92197e-01	-1.92197e-01	3.039828e-01	-3.83153e-02	
269	-9.21974e-02	-9.21974e-02	3.039828e-01	-4.48138e-02	
270	7.802628e-03	7.802628e-03	3.039828e-01	-5.11672e-02	
271	1.078026e-01	1.078026e-01	3.039828e-01	-5.72377e-02	
272	2.078026e-01	2.078026e-01	3.039828e-01	-6.28965e-02	
273	3.078026e-01	3.078026e-01	3.039828e-01	-6.80315e-02	
274	4.078026e-01	4.078026e-01	3.039828e-01	-7.25578e-02	
275	5.078026e-01	5.078026e-01	3.039828e-01	-7.64275e-02	
276	6.078026e-01	6.078026e-01	3.039828e-01	-7.96348e-02	
277	7.078026e-01	7.078026e-01	3.039828e-01	-8.22133e-02	
278	8.078026e-01	8.078026e-01	3.039828e-01	-8.42252e-02	
279	9.078026e-01	9.078026e-01	3.039828e-01	-8.57463e-02	
280	-9.92197e-01	-9.92197e-01	4.039828e-01	-2.16524e-02	
281	-8.92197e-01	-8.92197e-01	4.039828e-01	-2.49322e-02	
282	-7.92197e-01	-7.92197e-01	4.039828e-01	-2.93600e-02	
283	-6.92197e-01	-6.92197e-01	4.039828e-01	-3.48354e-02	
284	-5.92197e-01	-5.92197e-01	4.039828e-01	-4.12215e-02	
285	-4.92197e-01	-4.92197e-01	4.039828e-01	-4.83540e-02	
286	-3.92197e-01	-3.92197e-01	4.039828e-01	-5.60515e-02	

Index   v-sweep         v(in0)          v(in1)          v(out0)         
--------------------------------------------------------------------------------
287	-2.92197e-01	-2.92197e-01	4.039828e-01	-6.41235e-02	
288	-1.92197e-01	-1.92197e-01	4.039828e-01	-7.23771e-02	
289	-9.21974e-02	-9.21974e-02	4.039828e-01	-8.06211e-02	
290	7.802628e-03	7.802628e-03	4.039828e-01	-8.86696e-02	
291	1.078026e-01	1.078026e-01	4.039828e-01	-9.63464e-02	
292	2.078026e-01	2.078026e-01	4.039828e-01	-1.03492e-01	
293	3.078026e-01	3.078026e-01	4.039828e-01	-1.09972e-01	
294	4.078026e-01	4.078026e-01	4.039828e-01	-1.15690e-01	
295	5.078026e-01	5.078026e-01	4.039828e-01	-1.20597e-01	
296	6.078026e-01	6.078026e-01	4.039828e-01	-1.24690e-01	
297	7.078026e-01	7.078026e-01	4.039828e-01	-1.28015e-01	
298	8.078026e-01	8.078026e-01	4.039828e-01	-1.30647e-01	
299	9.078026e-01	9.078026e-01	4.039828e-01	-1.32678e-01	
300	-9.92197e-01	-9.92197e-01	5.039828e-01	-4.48621e-02	
301	-8.92197e-01	-8.92197e-01	5.039828e-01	-4.87612e-02	
302	-7.92197e-01	-7.92197e-01	5.039828e-01	-5.39786e-02	
303	-6.92197e-01	-6.92197e-01	5.039828e-01	-6.04094e-02	
304	-5.92197e-01	-5.92197e-01	5.039828e-01	-6.79062e-02	
305	-4.92197e-01	-4.92197e-01	5.039828e-01	-7.62863e-02	
306	-3.92197e-01	-3.92197e-01	5.039828e-01	-8.53414e-02	
307	-2.92197e-01	-2.92197e-01	5.039828e-01	-9.48467e-02	
308	-1.92197e-01	-1.92197e-01	5.039828e-01	-1.04570e-01	
309	-9.21974e-02	-9.21974e-02	5.039828e-01	-1.14278e-01	
310	7.802628e-03	7.802628e-03	5.039828e-01	-1.23748e-01	
311	1.078026e-01	1.078026e-01	5.039828e-01	-1.32771e-01	
312	2.078026e-01	2.078026e-01	5.039828e-01	-1.41164e-01	
313	3.078026e-01	3.078026e-01	5.039828e-01	-1.48781e-01	
314	4.078026e-01	4.078026e-01	5.039828e-01	-1.55520e-01	
315	5.078026e-01	5.078026e-01	5.039828e-01	-1.61334e-01	
316	6.078026e-01	6.078026e-01	5.039828e-01	-1.66227e-01	
317	7.078026e-01	7.078026e-01	5.039828e-01	-1.70253e-01	
318	8.078026e-01	8.078026e-01	5.039828e-01	-1.73492e-01	
319	9.078026e-01	9.078026e-01	5.039828e-01	-1.76044e-01	
320	-9.92197e-01	-9.92197e-01	6.039828e-01	-6.78433e-02	
321	-8.92197e-01	-8.92197e-01	6.039828e-01	-7.22691e-02	
