
Note: No compatibility mode selected!


Circuit: Psi-NN Neural Network Test (ngspice)

Doing analysis at TEMP = 27.000000 and TNOM = 27.000000

Using SPARSE 1.3 as Direct Linear Solver

No. of Data Rows : 121
                      Psi-NN Neural Network Test (ngspice)
                      DC transfer characteristic  Tue Jan  6 13:50:59  2026
--------------------------------------------------------------------------------
Index   v-sweep         v(in0)          v(in1)          v(out0)         
--------------------------------------------------------------------------------
0	0.000000e+00	0.000000e+00	0.000000e+00	6.759960e-02	
1	1.000000e-01	1.000000e-01	0.000000e+00	2.294432e-02	
2	2.000000e-01	2.000000e-01	0.000000e+00	-1.78126e-02	
3	3.000000e-01	3.000000e-01	0.000000e+00	-5.11417e-02	
4	4.000000e-01	4.000000e-01	0.000000e+00	-7.53863e-02	
5	5.000000e-01	5.000000e-01	0.000000e+00	-9.07142e-02	
6	6.000000e-01	6.000000e-01	0.000000e+00	-9.85281e-02	
7	7.000000e-01	7.000000e-01	0.000000e+00	-1.00751e-01	
8	8.000000e-01	8.000000e-01	0.000000e+00	-9.92725e-02	
9	9.000000e-01	9.000000e-01	0.000000e+00	-9.56560e-02	
10	1.000000e+00	1.000000e+00	0.000000e+00	-9.10451e-02	
11	0.000000e+00	0.000000e+00	1.000000e-01	2.090328e-02	
12	1.000000e-01	1.000000e-01	1.000000e-01	-2.53478e-02	
13	2.000000e-01	2.000000e-01	1.000000e-01	-6.78361e-02	
14	3.000000e-01	3.000000e-01	1.000000e-01	-1.02309e-01	
15	4.000000e-01	4.000000e-01	1.000000e-01	-1.26349e-01	
16	5.000000e-01	5.000000e-01	1.000000e-01	-1.39721e-01	
17	6.000000e-01	6.000000e-01	1.000000e-01	-1.43917e-01	
18	7.000000e-01	7.000000e-01	1.000000e-01	-1.41314e-01	
19	8.000000e-01	8.000000e-01	1.000000e-01	-1.34399e-01	
20	9.000000e-01	9.000000e-01	1.000000e-01	-1.25274e-01	
21	1.000000e+00	1.000000e+00	1.000000e-01	-1.15479e-01	
22	0.000000e+00	0.000000e+00	2.000000e-01	-1.81989e-02	
23	1.000000e-01	1.000000e-01	2.000000e-01	-6.96525e-02	
24	2.000000e-01	2.000000e-01	2.000000e-01	-1.18201e-01	
25	3.000000e-01	3.000000e-01	2.000000e-01	-1.58472e-01	
26	4.000000e-01	4.000000e-01	2.000000e-01	-1.86646e-01	
27	5.000000e-01	5.000000e-01	2.000000e-01	-2.01422e-01	
28	6.000000e-01	6.000000e-01	2.000000e-01	-2.03971e-01	
29	7.000000e-01	7.000000e-01	2.000000e-01	-1.97090e-01	
30	8.000000e-01	8.000000e-01	2.000000e-01	-1.84120e-01	
31	9.000000e-01	9.000000e-01	2.000000e-01	-1.68099e-01	
32	1.000000e+00	1.000000e+00	2.000000e-01	-1.51347e-01	
33	0.000000e+00	0.000000e+00	3.000000e-01	-4.40303e-02	
34	1.000000e-01	1.000000e-01	3.000000e-01	-1.02323e-01	
35	2.000000e-01	2.000000e-01	3.000000e-01	-1.60081e-01	
36	3.000000e-01	3.000000e-01	3.000000e-01	-2.10848e-01	
37	4.000000e-01	4.000000e-01	3.000000e-01	-2.48861e-01	
38	5.000000e-01	5.000000e-01	3.000000e-01	-2.70750e-01	
39	6.000000e-01	6.000000e-01	3.000000e-01	-2.76321e-01	
40	7.000000e-01	7.000000e-01	3.000000e-01	-2.68129e-01	
41	8.000000e-01	8.000000e-01	3.000000e-01	-2.50252e-01	
42	9.000000e-01	9.000000e-01	3.000000e-01	-2.26975e-01	
43	1.000000e+00	1.000000e+00	3.000000e-01	-2.01889e-01	
44	0.000000e+00	0.000000e+00	4.000000e-01	-5.46109e-02	
45	1.000000e-01	1.000000e-01	4.000000e-01	-1.18846e-01	
46	2.000000e-01	2.000000e-01	4.000000e-01	-1.86336e-01	
47	3.000000e-01	3.000000e-01	4.000000e-01	-2.50283e-01	
48	4.000000e-01	4.000000e-01	4.000000e-01	-3.03178e-01	
49	5.000000e-01	5.000000e-01	4.000000e-01	-3.38905e-01	
50	6.000000e-01	6.000000e-01	4.000000e-01	-3.54550e-01	
51	7.000000e-01	7.000000e-01	4.000000e-01	-3.51008e-01	
52	8.000000e-01	8.000000e-01	4.000000e-01	-3.32188e-01	
53	9.000000e-01	9.000000e-01	4.000000e-01	-3.03418e-01	
54	1.000000e+00	1.000000e+00	4.000000e-01	-2.69910e-01	

Index   v-sweep         v(in0)          v(in1)          v(out0)         
--------------------------------------------------------------------------------
55	0.000000e+00	0.000000e+00	5.000000e-01	-5.13036e-02	
56	1.000000e-01	1.000000e-01	5.000000e-01	-1.18666e-01	
57	2.000000e-01	2.000000e-01	5.000000e-01	-1.93617e-01	
58	3.000000e-01	3.000000e-01	5.000000e-01	-2.70165e-01	
59	4.000000e-01	4.000000e-01	5.000000e-01	-3.40158e-01	
60	5.000000e-01	5.000000e-01	5.000000e-01	-3.95084e-01	
61	6.000000e-01	6.000000e-01	5.000000e-01	-4.28505e-01	
62	7.000000e-01	7.000000e-01	5.000000e-01	-4.37973e-01	
63	8.000000e-01	8.000000e-01	5.000000e-01	-4.25445e-01	
64	9.000000e-01	9.000000e-01	5.000000e-01	-3.96141e-01	
65	1.000000e+00	1.000000e+00	5.000000e-01	-3.56604e-01	
66	0.000000e+00	0.000000e+00	6.000000e-01	-3.74801e-02	
67	1.000000e-01	1.000000e-01	6.000000e-01	-1.04430e-01	
68	2.000000e-01	2.000000e-01	6.000000e-01	-1.82773e-01	
69	3.000000e-01	3.000000e-01	6.000000e-01	-2.68305e-01	
70	4.000000e-01	4.000000e-01	6.000000e-01	-3.53738e-01	
71	5.000000e-01	5.000000e-01	6.000000e-01	-4.29608e-01	
72	6.000000e-01	6.000000e-01	6.000000e-01	-4.86456e-01	
73	7.000000e-01	7.000000e-01	6.000000e-01	-5.17564e-01	
74	8.000000e-01	8.000000e-01	6.000000e-01	-5.20948e-01	
75	9.000000e-01	9.000000e-01	6.000000e-01	-4.99593e-01	
76	1.000000e+00	1.000000e+00	6.000000e-01	-4.59980e-01	
77	0.000000e+00	0.000000e+00	7.000000e-01	-1.70874e-02	
78	1.000000e-01	1.000000e-01	7.000000e-01	-8.04251e-02	
79	2.000000e-01	2.000000e-01	7.000000e-01	-1.57706e-01	
80	3.000000e-01	3.000000e-01	7.000000e-01	-2.46926e-01	
81	4.000000e-01	4.000000e-01	7.000000e-01	-3.42871e-01	
82	5.000000e-01	5.000000e-01	7.000000e-01	-4.36983e-01	
83	6.000000e-01	6.000000e-01	7.000000e-01	-5.18538e-01	
84	7.000000e-01	7.000000e-01	7.000000e-01	-5.77192e-01	
85	8.000000e-01	8.000000e-01	7.000000e-01	-6.05989e-01	
86	9.000000e-01	9.000000e-01	7.000000e-01	-6.03405e-01	
87	1.000000e+00	1.000000e+00	7.000000e-01	-5.73414e-01	
88	0.000000e+00	0.000000e+00	8.000000e-01	6.347133e-03	
89	1.000000e-01	1.000000e-01	8.000000e-01	-5.11059e-02	
90	2.000000e-01	2.000000e-01	8.000000e-01	-1.23592e-01	
91	3.000000e-01	3.000000e-01	8.000000e-01	-2.11146e-01	
92	4.000000e-01	4.000000e-01	8.000000e-01	-3.11114e-01	
93	5.000000e-01	5.000000e-01	8.000000e-01	-4.17276e-01	
94	6.000000e-01	6.000000e-01	8.000000e-01	-5.19828e-01	
95	7.000000e-01	7.000000e-01	8.000000e-01	-6.06853e-01	
96	8.000000e-01	8.000000e-01	8.000000e-01	-6.67190e-01	
97	9.000000e-01	9.000000e-01	8.000000e-01	-6.93687e-01	
98	1.000000e+00	1.000000e+00	8.000000e-01	-6.85278e-01	
99	0.000000e+00	0.000000e+00	9.000000e-01	3.016794e-02	
100	1.000000e-01	1.000000e-01	9.000000e-01	-2.01820e-02	
101	2.000000e-01	2.000000e-01	9.000000e-01	-8.53887e-02	
102	3.000000e-01	3.000000e-01	9.000000e-01	-1.67011e-01	
103	4.000000e-01	4.000000e-01	9.000000e-01	-2.64763e-01	
104	5.000000e-01	5.000000e-01	9.000000e-01	-3.75329e-01	
105	6.000000e-01	6.000000e-01	9.000000e-01	-4.91478e-01	
106	7.000000e-01	7.000000e-01	9.000000e-01	-6.02204e-01	
107	8.000000e-01	8.000000e-01	9.000000e-01	-6.94462e-01	
108	9.000000e-01	9.000000e-01	9.000000e-01	-7.56351e-01	
109	1.000000e+00	1.000000e+00	9.000000e-01	-7.80571e-01	
110	0.000000e+00	0.000000e+00	1.000000e+00	5.264532e-02	
111	1.000000e-01	1.000000e-01	1.000000e+00	9.723833e-03	
112	2.000000e-01	2.000000e-01	1.000000e+00	-4.69875e-02	

Index   v-sweep         v(in0)          v(in1)          v(out0)         
--------------------------------------------------------------------------------
113	3.000000e-01	3.000000e-01	1.000000e+00	-1.19970e-01	
114	4.000000e-01	4.000000e-01	1.000000e+00	-2.10708e-01	
115	5.000000e-01	5.000000e-01	1.000000e+00	-3.18570e-01	
116	6.000000e-01	6.000000e-01	1.000000e+00	-4.39557e-01	
117	7.000000e-01	7.000000e-01	1.000000e+00	-5.65437e-01	
118	8.000000e-01	8.000000e-01	1.000000e+00	-6.84041e-01	
119	9.000000e-01	9.000000e-01	1.000000e+00	-7.81275e-01	
120	1.000000e+00	1.000000e+00	1.000000e+00	-8.44582e-01	


Total analysis time (seconds) = 0.0009555

Total elapsed time (seconds) = 0.015 

Total DRAM available = 130755.586 MB.
DRAM currently available = 99778.312 MB.
Maximum ngspice program size =   17.668 MB.
Current ngspice program size =   17.668 MB.

